# GHz S DB R 50
   10.000000    -1.661902   -10.391609   -35.384174    70.745561   -35.384174    70.745561    -1.661902   -10.391609
   13.500000    -2.787089   -62.424003   -33.293307    40.034498   -33.293307    40.034498    -2.787089   -62.424003
   17.000000    -6.473008   139.027031   -27.997261   -24.380369   -27.997261   -24.380369    -6.473008   139.027031
   20.500000    -2.165359     8.722473   -29.531324   -90.253117   -29.531324   -90.253117    -2.165359     8.722473
   24.000000    -2.557211   -55.620328   -28.855423  -128.240621   -28.855423  -128.240621    -2.557211   -55.620328
   27.500000    -4.910837  -168.684782   -25.140721   178.603837   -25.140721   178.603837    -4.910837  -168.684782
   31.000000    -2.797592    46.156472   -24.650307   110.253558   -24.650307   110.253558    -2.797592    46.156472
   34.500000    -3.119939   -41.631862   -24.185985    61.311004   -24.185985    61.311004    -3.119939   -41.631862
   38.000000    -4.374199  -166.735950   -21.944412     3.416384   -21.944412     3.416384    -4.374199  -166.735950
   41.500000    -2.198911    74.946228   -21.677799   -56.826646   -21.677799   -56.826646    -2.198911    74.946228
   45.000000    -3.418754   -12.518165   -19.780639  -108.816512   -19.780639  -108.816512    -3.418754   -12.518165
   48.500000    -5.311866   156.210604   -18.225329   171.213642   -18.225329   171.213642    -5.311866   156.210604
   52.000000    -2.079532    56.256673   -19.980841   109.553817   -19.980841   109.553817    -2.079532    56.256673
   55.500000   -12.929894   -54.393799   -16.400565    35.296964   -16.400565    35.296964   -12.929894   -54.393799
   59.000000    -1.494685    63.971400   -21.288252   -57.170685   -21.288252   -57.170685    -1.494685    63.971400
   62.500000    -1.574471    19.868083   -21.897222   -93.614771   -21.897222   -93.614771    -1.574471    19.868083
   66.000000   -14.433878   -99.039277   -16.313548  -160.998936   -16.313548  -160.998936   -14.433878   -99.039277
   69.500000    -1.551033    57.459741   -21.426763   121.294588   -21.426763   121.294588    -1.551033    57.459741
   73.000000    -0.900833    27.487789   -23.375011    99.917488   -23.375011    99.917488    -0.900833    27.487789
   76.500000    -1.576306    -3.656636   -19.642156    74.400003   -19.642156    74.400003    -1.576306    -3.656636
   80.000000    -7.427752    98.771542   -15.523804   -18.216661   -15.523804   -18.216661    -7.427752    98.771542
